Freq.	V(n61p1)
1.00000000000000e+01	(1.36965133486671e+01dB,-1.71004248097279e-02°)
1.00230523807790e+01	(1.36965123932967e+01dB,-1.71398438864964e-02°)
1.00461579027839e+01	(1.36965114228951e+01dB,-1.71793520366673e-02°)
1.00693166885180e+01	(1.36965104556097e+01dB,-1.72189528455202e-02°)
1.00925288607668e+01	(1.36965094922661e+01dB,-1.72586446972894e-02°)
1.01157945425990e+01	(1.36965085444070e+01dB,-1.72984283269500e-02°)
1.01391138573668e+01	(1.36965075784666e+01dB,-1.73383030935418e-02°)
1.01624869287070e+01	(1.36965066256876e+01dB,-1.73782697923776e-02°)
1.01859138805412e+01	(1.36965056451793e+01dB,-1.74183291763528e-02°)
1.02093948370768e+01	(1.36965046805842e+01dB,-1.74584812742212e-02°)
1.02329299228075e+01	(1.36965037162389e+01dB,-1.74987250841239e-02°)
1.02565192625141e+01	(1.36965027581210e+01dB,-1.75390618329518e-02°)
1.02801629812647e+01	(1.36965017592439e+01dB,-1.75794910158288e-02°)
1.03038612044162e+01	(1.36965007932671e+01dB,-1.76200140039510e-02°)
1.03276140576140e+01	(1.36964998352971e+01dB,-1.76606310994747e-02°)
1.03514216667934e+01	(1.36964988646278e+01dB,-1.77013423658226e-02°)
1.03752841581801e+01	(1.36964978890608e+01dB,-1.77421452366554e-02°)
1.03992016582906e+01	(1.36964968982375e+01dB,-1.77830426640024e-02°)
1.04231742939330e+01	(1.36964959392319e+01dB,-1.78240349079322e-02°)
1.04472021922080e+01	(1.36964949397446e+01dB,-1.78651203012899e-02°)
1.04712854805090e+01	(1.36964939605455e+01dB,-1.79063030319105e-02°)
1.04954242865232e+01	(1.36964929767898e+01dB,-1.79475783633305e-02°)
1.05196187382322e+01	(1.36964920121057e+01dB,-1.79889503720419e-02°)
1.05438689639126e+01	(1.36964910294810e+01dB,-1.80304173485236e-02°)
1.05681750921366e+01	(1.36964900383988e+01dB,-1.80719793309293e-02°)
1.05925372517729e+01	(1.36964890435104e+01dB,-1.81136378289539e-02°)
1.06169555719872e+01	(1.36964880710122e+01dB,-1.81553917042586e-02°)
1.06414301822431e+01	(1.36964870573403e+01dB,-1.81972417825674e-02°)
1.06659612123026e+01	(1.36964860849967e+01dB,-1.82391890454321e-02°)
1.06905487922266e+01	(1.36964851090261e+01dB,-1.82812332318497e-02°)
1.07151930523761e+01	(1.36964841087894e+01dB,-1.83233733008532e-02°)
1.07398941234124e+01	(1.36964831039298e+01dB,-1.83656109036508e-02°)
1.07646521362983e+01	(1.36964821146396e+01dB,-1.84079450444050e-02°)
1.07894672222983e+01	(1.36964811211639e+01dB,-1.84503784986997e-02°)
1.08143395129794e+01	(1.36964801313574e+01dB,-1.84929092820936e-02°)
1.08392691402120e+01	(1.36964791456583e+01dB,-1.85355373570166e-02°)
1.08642562361706e+01	(1.36964781355337e+01dB,-1.85782633757883e-02°)
1.08893009333343e+01	(1.36964771424128e+01dB,-1.86210888358120e-02°)
1.09144033644875e+01	(1.36964761359230e+01dB,-1.86640123502866e-02°)
1.09395636627209e+01	(1.36964751488771e+01dB,-1.87070369652096e-02°)
1.09647819614318e+01	(1.36964741413599e+01dB,-1.87501579746693e-02°)
1.09900583943252e+01	(1.36964731240226e+01dB,-1.87933780467907e-02°)
1.10153930954141e+01	(1.36964721182069e+01dB,-1.88367012403584e-02°)
1.10407861990207e+01	(1.36964711202776e+01dB,-1.88801215613822e-02°)
1.10662378397766e+01	(1.36964701092321e+01dB,-1.89236418375497e-02°)
1.10917481526240e+01	(1.36964691057316e+01dB,-1.89672620247995e-02°)
1.11173172728159e+01	(1.36964680967889e+01dB,-1.90109851909219e-02°)
1.11429453359173e+01	(1.36964670986143e+01dB,-1.90548074416706e-02°)
1.11686324778056e+01	(1.36964660607626e+01dB,-1.90987295337103e-02°)
1.11943788346715e+01	(1.36964650591756e+01dB,-1.91427556436833e-02°)
1.12201845430196e+01	(1.36964640478774e+01dB,-1.91868826606503e-02°)
1.12460497396692e+01	(1.36964630214752e+01dB,-1.92311112118881e-02°)
1.12719745617551e+01	(1.36964619863587e+01dB,-1.92754404875349e-02°)
1.12979591467279e+01	(1.36964610051121e+01dB,-1.93198732420781e-02°)
1.13240036323555e+01	(1.36964599733309e+01dB,-1.93644079416104e-02°)
1.13501081567231e+01	(1.36964589378273e+01dB,-1.94090439019477e-02°)
1.13762728582343e+01	(1.36964579146687e+01dB,-1.94537853030879e-02°)
1.14024978756117e+01	(1.36964569231166e+01dB,-1.94986285613509e-02°)
1.14287833478977e+01	(1.36964558817938e+01dB,-1.95435765027266e-02°)
1.14551294144553e+01	(1.36964548745381e+01dB,-1.95886259620751e-02°)
1.14815362149688e+01	(1.36964538402618e+01dB,-1.96337790989129e-02°)
1.15080038894443e+01	(1.36964528126688e+01dB,-1.96790371028526e-02°)
1.15345325782109e+01	(1.36964517795409e+01dB,-1.97244008887121e-02°)
1.15611224219210e+01	(1.36964507469087e+01dB,-1.97698677416680e-02°)
1.15877735615512e+01	(1.36964497271315e+01dB,-1.98154397477252e-02°)
1.16144861384034e+01	(1.36964486741883e+01dB,-1.98611156319739e-02°)
1.16412602941049e+01	(1.36964476634911e+01dB,-1.99068991693654e-02°)
1.16680961706096e+01	(1.36964466306262e+01dB,-1.99527867762083e-02°)
1.16949939101987e+01	(1.36964455952277e+01dB,-1.99987807084296e-02°)
1.17219536554813e+01	(1.36964445577565e+01dB,-2.00448804424154e-02°)
1.17489755493953e+01	(1.36964435171467e+01dB,-2.00910853476951e-02°)
1.17760597352080e+01	(1.36964424782969e+01dB,-2.01373988837867e-02°)
1.18032063565173e+01	(1.36964414438748e+01dB,-2.01838173356275e-02°)
1.18304155572516e+01	(1.36964404086295e+01dB,-2.02303446630405e-02°)
1.18576874816716e+01	(1.36964393600763e+01dB,-2.02769765271603e-02°)
1.18850222743701e+01	(1.36964383055943e+01dB,-2.03237168822842e-02°)
1.19124200802737e+01	(1.36964372599760e+01dB,-2.03705648669805e-02°)
1.19398810446427e+01	(1.36964362202907e+01dB,-2.04175233498600e-02°)
1.19674053130724e+01	(1.36964351716565e+01dB,-2.04645870656152e-02°)
1.19949930314937e+01	(1.36964341211883e+01dB,-2.05117602806145e-02°)
1.20226443461741e+01	(1.36964330745441e+01dB,-2.05590420979247e-02°)
1.20503594037179e+01	(1.36964320207493e+01dB,-2.06064338496631e-02°)
1.20781383510678e+01	(1.36964309574543e+01dB,-2.06539320667330e-02°)
1.21059813355048e+01	(1.36964299063885e+01dB,-2.07015423694795e-02°)
1.21338885046497e+01	(1.36964288502888e+01dB,-2.07492625778652e-02°)
1.21618600064636e+01	(1.36964278006229e+01dB,-2.07970928354321e-02°)
1.21898959892486e+01	(1.36964267301677e+01dB,-2.08450326190678e-02°)
1.22179966016487e+01	(1.36964256838040e+01dB,-2.08930823606764e-02°)
1.22461619926504e+01	(1.36964246070097e+01dB,-2.09412418760056e-02°)
1.22743923115840e+01	(1.36964235666863e+01dB,-2.09895152614017e-02°)
1.23026877081238e+01	(1.36964224942061e+01dB,-2.10378980158531e-02°)
1.23310483322890e+01	(1.36964214349193e+01dB,-2.10863940196483e-02°)
1.23594743344450e+01	(1.36964203730434e+01dB,-2.11350004696825e-02°)
1.23879658653036e+01	(1.36964193061664e+01dB,-2.11837187823860e-02°)
1.24165230759240e+01	(1.36964182375587e+01dB,-2.12325479139687e-02°)
1.24451461177138e+01	(1.36964171727009e+01dB,-2.12814930382123e-02°)
1.24738351424294e+01	(1.36964160972913e+01dB,-2.13305481370563e-02°)
1.25025903021771e+01	(1.36964150198241e+01dB,-2.13797183722749e-02°)
1.25314117494141e+01	(1.36964139499865e+01dB,-2.14290005532847e-02°)
1.25602996369487e+01	(1.36964128823504e+01dB,-2.14783970979642e-02°)
1.25892541179416e+01	(1.36964118018841e+01dB,-2.15279077679774e-02°)
1.26182753459066e+01	(1.36964107208454e+01dB,-2.15775318444841e-02°)
1.26473634747114e+01	(1.36964096558159e+01dB,-2.16272708315641e-02°)
1.26765186585784e+01	(1.36964085683331e+01dB,-2.16771232678984e-02°)
1.27057410520853e+01	(1.36964074843612e+01dB,-2.17270918444830e-02°)
1.27350308101665e+01	(1.36964064110515e+01dB,-2.17771759649675e-02°)
1.27643880881134e+01	(1.36964053331053e+01dB,-2.18273744046035e-02°)
1.27938130415752e+01	(1.36964042461776e+01dB,-2.18776888690285e-02°)
1.28233058265601e+01	(1.36964031659536e+01dB,-2.19281179941839e-02°)
1.28528665994361e+01	(1.36964020689503e+01dB,-2.19786658519179e-02°)
1.28824955169313e+01	(1.36964009978156e+01dB,-2.20293310330754e-02°)
1.29121927361353e+01	(1.36963999074468e+01dB,-2.20801102241086e-02°)
1.29419584144998e+01	(1.36963988093181e+01dB,-2.21310067746085e-02°)
1.29717927098395e+01	(1.36963977151715e+01dB,-2.21820204646971e-02°)
1.30016957803328e+01	(1.36963966384213e+01dB,-2.22331547728145e-02°)
1.30316677845229e+01	(1.36963955460855e+01dB,-2.22844028551101e-02°)
1.30617088813183e+01	(1.36963944308933e+01dB,-2.23357703599236e-02°)
1.30918192299940e+01	(1.36963933455519e+01dB,-2.23872569137471e-02°)
1.31219989901920e+01	(1.36963922543348e+01dB,-2.24388620095285e-02°)
1.31522483219223e+01	(1.36963911373466e+01dB,-2.24905866775456e-02°)
1.31825673855640e+01	(1.36963900447136e+01dB,-2.25424298267796e-02°)
1.32129563418657e+01	(1.36963889453729e+01dB,-2.25943938759069e-02°)
1.32434153519466e+01	(1.36963878329685e+01dB,-2.26464754137599e-02°)
1.32739445772973e+01	(1.36963867465211e+01dB,-2.26986783819033e-02°)
1.33045441797808e+01	(1.36963856272106e+01dB,-2.27510007352818e-02°)
1.33352143216332e+01	(1.36963845168476e+01dB,-2.28034439992700e-02°)
1.33659551654643e+01	(1.36963834267526e+01dB,-2.28560087465666e-02°)
1.33967668742593e+01	(1.36963823189357e+01dB,-2.29086953946681e-02°)
1.34276496113785e+01	(1.36963812008297e+01dB,-2.29615021028922e-02°)
1.34586035405594e+01	(1.36963800878980e+01dB,-2.30144295294628e-02°)
1.34896288259164e+01	(1.36963789631066e+01dB,-2.30674803504335e-02°)
1.35207256319427e+01	(1.36963778422731e+01dB,-2.31206538935616e-02°)
1.35518941235103e+01	(1.36963767558578e+01dB,-2.31739514403764e-02°)
1.35831344658714e+01	(1.36963756330698e+01dB,-2.32273672737557e-02°)
1.36144468246594e+01	(1.36963745125949e+01dB,-2.32809100266916e-02°)
1.36458313658891e+01	(1.36963733783549e+01dB,-2.33345756330745e-02°)
1.36772882559584e+01	(1.36963722744035e+01dB,-2.33883651764303e-02°)
1.37088176616484e+01	(1.36963711569012e+01dB,-2.34422777238536e-02°)
1.37404197501251e+01	(1.36963700402100e+01dB,-2.34963158739691e-02°)
1.37720946889394e+01	(1.36963688906697e+01dB,-2.35504744118435e-02°)
1.38038426460287e+01	(1.36963677678585e+01dB,-2.36047622240247e-02°)
1.38356637897177e+01	(1.36963666503151e+01dB,-2.36591739274114e-02°)
1.38675582887188e+01	(1.36963655104892e+01dB,-2.37137102819114e-02°)
1.38995263121334e+01	(1.36963643898864e+01dB,-2.37683741613726e-02°)
1.39315680294529e+01	(1.36963632638215e+01dB,-2.38231610926830e-02°)
1.39636836105593e+01	(1.36963621374709e+01dB,-2.38780759918609e-02°)
1.39958732257261e+01	(1.36963609943057e+01dB,-2.39331183612490e-02°)
1.40281370456195e+01	(1.36963598612484e+01dB,-2.39882861736845e-02°)
1.40604752412990e+01	(1.36963587312130e+01dB,-2.40435820914181e-02°)
1.40928879842186e+01	(1.36963575819860e+01dB,-2.40990036380235e-02°)
1.41253754462274e+01	(1.36963564441285e+01dB,-2.41545552654178e-02°)
1.41579377995707e+01	(1.36963553126447e+01dB,-2.42102342825393e-02°)
1.41905752168908e+01	(1.36963541629920e+01dB,-2.42660427287456e-02°)
1.42232878712281e+01	(1.36963530081285e+01dB,-2.43219765714192e-02°)
1.42560759360218e+01	(1.36963518830147e+01dB,-2.43780431824478e-02°)
1.42889395851109e+01	(1.36963507285989e+01dB,-2.44342357476989e-02°)
1.43218789927353e+01	(1.36963495722057e+01dB,-2.44905583351490e-02°)
1.43548943335364e+01	(1.36963484374602e+01dB,-2.45470137099801e-02°)
1.43879857825583e+01	(1.36963472863434e+01dB,-2.46035950127844e-02°)
1.44211535152486e+01	(1.36963461313767e+01dB,-2.46603099794573e-02°)
1.44543977074592e+01	(1.36963449844426e+01dB,-2.47171538085360e-02°)
1.44877185354475e+01	(1.36963438178773e+01dB,-2.47741305131753e-02°)
1.45211161758773e+01	(1.36963426635825e+01dB,-2.48312371826493e-02°)
1.45545908058195e+01	(1.36963415258155e+01dB,-2.48884765312813e-02°)
1.45881426027534e+01	(1.36963403677646e+01dB,-2.49458474216511e-02°)
1.46217717445671e+01	(1.36963391924956e+01dB,-2.50033488287408e-02°)
1.46554784095590e+01	(1.36963380510951e+01dB,-2.50609866784749e-02°)
1.46892627764385e+01	(1.36963368641884e+01dB,-2.51187514099235e-02°)
1.47231250243271e+01	(1.36963357237906e+01dB,-2.51766554164065e-02°)
1.47570653327588e+01	(1.36963345536587e+01dB,-2.52346910760362e-02°)
1.47910838816819e+01	(1.36963333844904e+01dB,-2.52928580324159e-02°)
1.48251808514594e+01	(1.36963322182413e+01dB,-2.53511603970435e-02°)
1.48593564228699e+01	(1.36963310614235e+01dB,-2.54095976658274e-02°)
1.48936107771090e+01	(1.36963298686068e+01dB,-2.54681694133107e-02°)
1.49279440957898e+01	(1.36963287095354e+01dB,-2.55268754884110e-02°)
1.49623565609442e+01	(1.36963275346820e+01dB,-2.55857186576904e-02°)
1.49968483550236e+01	(1.36963263443071e+01dB,-2.56446952130071e-02°)
1.50314196609001e+01	(1.36963251839768e+01dB,-2.57038104140046e-02°)
1.50660706618673e+01	(1.36963239989752e+01dB,-2.57630580272360e-02°)
1.51008015416413e+01	(1.36963228108867e+01dB,-2.58224435012305e-02°)
1.51356124843619e+01	(1.36963216530616e+01dB,-2.58819682933165e-02°)
1.51705036745932e+01	(1.36963204731714e+01dB,-2.59416297323827e-02°)
1.52054752973248e+01	(1.36963192864937e+01dB,-2.60014273987494e-02°)
1.52405275379728e+01	(1.36963181012340e+01dB,-2.60613634519563e-02°)
1.52756605823806e+01	(1.36963169225477e+01dB,-2.61214358268113e-02°)
1.53108746168202e+01	(1.36963157307331e+01dB,-2.61816500691243e-02°)
1.53461698279928e+01	(1.36963145543898e+01dB,-2.62420014578826e-02°)
1.53815464030302e+01	(1.36963133606811e+01dB,-2.63024938602769e-02°)
1.54170045294954e+01	(1.36963121685475e+01dB,-2.63631222313847e-02°)
1.54525443953840e+01	(1.36963109787553e+01dB,-2.64238893729783e-02°)
1.54881661891247e+01	(1.36963097850026e+01dB,-2.64848017307346e-02°)
1.55238700995807e+01	(1.36963085870508e+01dB,-2.65458513937554e-02°)
1.55596563160506e+01	(1.36963073976388e+01dB,-2.66070430026429e-02°)
1.55955250282694e+01	(1.36963061948644e+01dB,-2.66683749466228e-02°)
1.56314764264094e+01	(1.36963049980743e+01dB,-2.67298472142596e-02°)
1.56675107010813e+01	(1.36963037873388e+01dB,-2.67914630725846e-02°)
1.57036280433354e+01	(1.36963025921395e+01dB,-2.68532192065983e-02°)
1.57398286446620e+01	(1.36963013836012e+01dB,-2.69151161897662e-02°)
1.57761126969933e+01	(1.36963001817175e+01dB,-2.69771588078786e-02°)
1.58124803927037e+01	(1.36962989807663e+01dB,-2.70393464952502e-02°)
1.58489319246110e+01	(1.36962977654667e+01dB,-2.71016756354098e-02°)
1.58854674859776e+01	(1.36962965570649e+01dB,-2.71641458663824e-02°)
1.59220872705115e+01	(1.36962953511851e+01dB,-2.72267625664483e-02°)
1.59587914723672e+01	(1.36962941495683e+01dB,-2.72895227657590e-02°)
1.59955802861465e+01	(1.36962929433754e+01dB,-2.73524283378280e-02°)
1.60324539069002e+01	(1.36962917101130e+01dB,-2.74154773495599e-02°)
1.60694125301286e+01	(1.36962905070075e+01dB,-2.74786731373237e-02°)
1.61064563517825e+01	(1.36962892733994e+01dB,-2.75420137035825e-02°)
1.61435855682647e+01	(1.36962880686517e+01dB,-2.76055011275161e-02°)
1.61808003764305e+01	(1.36962868559386e+01dB,-2.76691355729866e-02°)
1.62181009735891e+01	(1.36962856332607e+01dB,-2.77329157421465e-02°)
1.62554875575047e+01	(1.36962843927295e+01dB,-2.77968407086135e-02°)
1.62929603263970e+01	(1.36962831816666e+01dB,-2.78609175738516e-02°)
1.63305194789432e+01	(1.36962819518879e+01dB,-2.79251396414348e-02°)
1.63681652142779e+01	(1.36962807311139e+01dB,-2.79895102788098e-02°)
1.64058977319952e+01	(1.36962794967658e+01dB,-2.80540285338085e-02°)
1.64437172321491e+01	(1.36962782568898e+01dB,-2.81186917150152e-02°)
1.64816239152549e+01	(1.36962770374803e+01dB,-2.81835089655900e-02°)
1.65196179822900e+01	(1.36962758000720e+01dB,-2.82484771672305e-02°)
1.65576996346951e+01	(1.36962745635003e+01dB,-2.83135939561539e-02°)
1.65958690743754e+01	(1.36962733210236e+01dB,-2.83788569540799e-02°)
1.66341265037015e+01	(1.36962721011840e+01dB,-2.84442728949871e-02°)
1.66724721255104e+01	(1.36962708613158e+01dB,-2.85098419249613e-02°)
1.67109061431069e+01	(1.36962696147819e+01dB,-2.85755590159652e-02°)
1.67494287602642e+01	(1.36962683708017e+01dB,-2.86414270493618e-02°)
1.67880401812254e+01	(1.36962671272561e+01dB,-2.87074476939885e-02°)
1.68267406107045e+01	(1.36962658825606e+01dB,-2.87736199566937e-02°)
1.68655302538872e+01	(1.36962646353251e+01dB,-2.88399487280835e-02°)
1.69044093164324e+01	(1.36962633814690e+01dB,-2.89064234719439e-02°)
1.69433780044731e+01	(1.36962621409218e+01dB,-2.89730577035612e-02°)
1.69824365246172e+01	(1.36962609011611e+01dB,-2.90398458360127e-02°)
1.70215850839493e+01	(1.36962596442089e+01dB,-2.91067835804268e-02°)
1.70608238900310e+01	(1.36962583964776e+01dB,-2.91738781725785e-02°)
1.71001531509027e+01	(1.36962571256150e+01dB,-2.92411269934360e-02°)
1.71395730750841e+01	(1.36962558838396e+01dB,-2.93085303434964e-02°)
1.71790838715757e+01	(1.36962546167965e+01dB,-2.93760868105405e-02°)
1.72186857498599e+01	(1.36962533582497e+01dB,-2.94438014610260e-02°)
1.72583789199018e+01	(1.36962521054081e+01dB,-2.95116746350519e-02°)
1.72981635921508e+01	(1.36962508244109e+01dB,-2.95796980644255e-02°)
1.73380399775412e+01	(1.36962495685945e+01dB,-2.96478860251726e-02°)
1.73780082874935e+01	(1.36962483015896e+01dB,-2.97162245936856e-02°)
1.74180687339159e+01	(1.36962470317214e+01dB,-2.97847239179249e-02°)
1.74582215292048e+01	(1.36962457788855e+01dB,-2.98533817233000e-02°)
1.74984668862464e+01	(1.36962445100943e+01dB,-2.99221949463982e-02°)
1.75388050184174e+01	(1.36962432210364e+01dB,-2.99911693333409e-02°)
1.75792361395867e+01	(1.36962419480664e+01dB,-3.00603006260351e-02°)
1.76197604641161e+01	(1.36962406981722e+01dB,-3.01295937825319e-02°)
1.76603782068614e+01	(1.36962394174632e+01dB,-3.01990439440878e-02°)
1.77010895831740e+01	(1.36962381375312e+01dB,-3.02686554967625e-02°)
1.77418948089014e+01	(1.36962368622515e+01dB,-3.03384284197954e-02°)
1.77827941003890e+01	(1.36962355773187e+01dB,-3.04083624968351e-02°)
1.78237876744807e+01	(1.36962342961221e+01dB,-3.04784560100474e-02°)
1.78648757485203e+01	(1.36962330219367e+01dB,-3.05487110275100e-02°)
1.79060585403527e+01	(1.36962317275408e+01dB,-3.06191277131107e-02°)
1.79473362683250e+01	(1.36962304434165e+01dB,-3.06897089639514e-02°)
1.79887091512877e+01	(1.36962291742504e+01dB,-3.07604485481579e-02°)
1.80301774085955e+01	(1.36962278753952e+01dB,-3.08313547687285e-02°)
1.80717412601090e+01	(1.36962265728829e+01dB,-3.09024262578379e-02°)
1.81134009261958e+01	(1.36962252891418e+01dB,-3.09736611397974e-02°)
1.81551566277311e+01	(1.36962240042846e+01dB,-3.10450543285309e-02°)
1.81970085860996e+01	(1.36962226968758e+01dB,-3.11166154026341e-02°)
1.82389570231961e+01	(1.36962214046992e+01dB,-3.11883438399924e-02°)
1.82810021614272e+01	(1.36962201017673e+01dB,-3.12602340907305e-02°)
1.83231442237119e+01	(1.36962188159483e+01dB,-3.13322935130936e-02°)
1.83653834334832e+01	(1.36962175129850e+01dB,-3.14045185924414e-02°)
1.84077200146893e+01	(1.36962161986345e+01dB,-3.14769061701150e-02°)
1.84501541917945e+01	(1.36962149133041e+01dB,-3.15494659187675e-02°)
1.84926861897805e+01	(1.36962136025316e+01dB,-3.16221897783747e-02°)
1.85353162341479e+01	(1.36962122916873e+01dB,-3.16950830680765e-02°)
1.85780445509167e+01	(1.36962109885874e+01dB,-3.17681394469867e-02°)
1.86208713666284e+01	(1.36962096665439e+01dB,-3.18413678341702e-02°)
1.86637969083464e+01	(1.36962083586592e+01dB,-3.19147655011389e-02°)
1.87068214036578e+01	(1.36962070424687e+01dB,-3.19883326404666e-02°)
1.87499450806739e+01	(1.36962057347082e+01dB,-3.20620663507995e-02°)
1.87931681680324e+01	(1.36962044216281e+01dB,-3.21359740538531e-02°)
1.88364908948977e+01	(1.36962031039576e+01dB,-3.22100505037833e-02°)
1.88799134909627e+01	(1.36962017734651e+01dB,-3.22842955412996e-02°)
1.89234361864495e+01	(1.36962004549380e+01dB,-3.23587147601080e-02°)
1.89670592121112e+01	(1.36961991453219e+01dB,-3.24333017135003e-02°)
1.90107827992327e+01	(1.36961978064785e+01dB,-3.25080629704094e-02°)
1.90546071796322e+01	(1.36961964938343e+01dB,-3.25829986631328e-02°)
1.90985325856621e+01	(1.36961951527343e+01dB,-3.26581065641650e-02°)
1.91425592502106e+01	(1.36961938226373e+01dB,-3.27333829692962e-02°)
1.91866874067026e+01	(1.36961925104747e+01dB,-3.28088407025809e-02°)
1.92309172891013e+01	(1.36961911721912e+01dB,-3.28844643731437e-02°)
1.92752491319091e+01	(1.36961898311801e+01dB,-3.29602659464631e-02°)
1.93196831701690e+01	(1.36961884932870e+01dB,-3.30362415475610e-02°)
1.93642196394658e+01	(1.36961871511368e+01dB,-3.31123921862210e-02°)
1.94088587759275e+01	(1.36961858338402e+01dB,-3.31887221748394e-02°)
